01 05 00 00 ff 00 8c 3a 
01 05 00 00 00 00 cd ca 
01 05 01 00 ff 00 8d c6 
01 05 01 00 00 00 cc 36 
01 05 02 00 ff 00 8d 82 
01 05 02 00 00 00 cc 72 
01 05 03 00 ff 00 8c 7e 
01 05 03 00 00 00 cd 8e 
01 05 04 00 ff 00 8d 0a 
01 05 04 00 00 00 cc fa 
01 05 05 00 ff 00 8c f6 
01 05 05 00 00 00 cd 06 
01 05 06 00 ff 00 8c b2 
01 05 06 00 00 00 cd 42 
01 05 07 00 ff 00 8d 4e 
01 05 07 00 00 00 cc be 
01 05 08 00 ff 00 8e 5a 
01 05 08 00 00 00 cf aa 
01 05 09 00 ff 00 8f a6 
01 05 09 00 00 00 ce 56 
01 05 0a 00 ff 00 8f e2 
01 05 0a 00 00 00 ce 12 
01 05 0b 00 ff 00 8e 1e 
01 05 0b 00 00 00 cf ee 
01 05 0c 00 ff 00 8f 6a 
01 05 0c 00 00 00 ce 9a 
01 05 0d 00 ff 00 8e 96 
01 05 0d 00 00 00 cf 66 
01 05 0e 00 ff 00 8e d2 
01 05 0e 00 00 00 cf 22 
01 05 0f 00 ff 00 8f 2e 
01 05 0f 00 00 00 ce de 
01 05 10 00 ff 00 88 fa 
01 05 10 00 00 00 c9 0a 
01 05 11 00 ff 00 89 06 
01 05 11 00 00 00 c8 f6 
01 05 12 00 ff 00 89 42 
01 05 12 00 00 00 c8 b2 
01 05 13 00 ff 00 88 be 
01 05 13 00 00 00 c9 4e 
01 05 14 00 ff 00 89 ca 
01 05 14 00 00 00 c8 3a 
01 05 15 00 ff 00 88 36 
01 05 15 00 00 00 c9 c6 
01 05 16 00 ff 00 88 72 
01 05 16 00 00 00 c9 82 
01 05 17 00 ff 00 89 8e 
01 05 17 00 00 00 c8 7e 
01 05 18 00 ff 00 8a 9a 
01 05 18 00 00 00 cb 6a 
01 05 19 00 ff 00 8b 66 
01 05 19 00 00 00 ca 96 
01 05 1a 00 ff 00 8b 22 
01 05 1a 00 00 00 ca d2 
01 05 1b 00 ff 00 8a de 
01 05 1b 00 00 00 cb 2e 
01 05 1c 00 ff 00 8b aa 
01 05 1c 00 00 00 ca 5a 
01 05 1d 00 ff 00 8a 56 
01 05 1d 00 00 00 cb a6 
01 05 1e 00 ff 00 8a 12 
01 05 1e 00 00 00 cb e2 
01 05 1f 00 ff 00 8b ee 
01 05 1f 00 00 00 ca 1e
